
Vg(V)	Id(A)	-Id(A)	Ig(A)	abs(Ig)(A)	Sqrt(Id)	Gm	LinearMobility(cm2/Vs)	SaturationMobility(cm2/Vs)	InvSubthS(V/dec)
5.000E+0	-4.078E-8	4.078E-8	5.066E-10	5.066E-10	2.020E-4	3.789E-9	8.236E-4	6.493E-4	2.915E+1
3.000E+0	-5.594E-8	5.594E-8	3.835E-10	3.835E-10	2.365E-4	8.918E-9	1.939E-3	3.021E-3	1.466E+1
1.000E+0	-7.646E-8	7.646E-8	3.346E-10	3.346E-10	2.765E-4	1.161E-8	2.524E-3	3.785E-3	1.524E+1
-1.000E+0	-1.024E-7	1.024E-7	2.833E-10	2.833E-10	3.200E-4	1.430E-8	3.108E-3	4.310E-3	1.649E+1
-3.000E+0	-1.336E-7	1.336E-7	2.334E-10	2.334E-10	3.656E-4	1.722E-8	3.743E-3	4.787E-3	1.790E+1
-5.000E+0	-1.713E-7	1.713E-7	1.945E-10	1.945E-10	4.138E-4	2.019E-8	4.389E-3	5.162E-3	1.949E+1
-7.000E+0	-2.144E-7	2.144E-7	1.548E-10	1.548E-10	4.630E-4	2.295E-8	4.989E-3	5.332E-3	2.146E+1
-9.000E+0	-2.630E-7	2.630E-7	1.377E-10	1.377E-10	5.129E-4	2.559E-8	5.563E-3	5.411E-3	2.360E+1
-1.100E+1	-3.167E-7	3.167E-7	1.417E-10	1.417E-10	5.628E-4	2.800E-8	6.088E-3	5.385E-3	2.596E+1
-1.300E+1	-3.751E-7	3.751E-7	1.446E-10	1.446E-10	6.124E-4	3.029E-8	6.584E-3	5.320E-3	2.844E+1
-1.500E+1	-4.379E-7	4.379E-7	8.170E-11	8.170E-11	6.617E-4	3.223E-8	7.008E-3	5.167E-3	3.117E+1
-1.700E+1	-5.040E-7	5.040E-7	-1.245E-11	1.245E-11	7.099E-4	3.395E-8	7.380E-3	4.976E-3	3.410E+1
-1.900E+1	-5.737E-7	5.737E-7	-5.175E-11	5.175E-11	7.574E-4	3.545E-8	7.706E-3	4.770E-3	3.715E+1
-2.100E+1	-6.458E-7	6.458E-7	-1.250E-10	1.250E-10	8.036E-4	3.662E-8	7.961E-3	4.521E-3	4.050E+1
-2.300E+1	-7.202E-7	7.202E-7	-9.600E-10	9.600E-10	8.486E-4	3.794E-8	8.247E-3	4.348E-3	4.364E+1
-2.500E+1	-7.975E-7	7.975E-7	-2.571E-9	2.571E-9	8.930E-4	3.906E-8	8.492E-3	4.166E-3	4.690E+1
-2.700E+1	-8.764E-7	8.764E-7	-4.902E-9	4.902E-9	9.362E-4	3.982E-8	8.657E-3	3.938E-3	5.058E+1
-2.900E+1	-9.568E-7	9.568E-7	-7.950E-9	7.950E-9	9.782E-4	4.049E-8	8.803E-3	3.730E-3	5.431E+1
-3.100E+1	-1.038E-6	1.038E-6	-1.187E-8	1.187E-8	1.019E-3	4.179E-8	9.086E-3	3.656E-3	5.720E+1
-3.300E+1	-1.124E-6	1.124E-6	-1.672E-8	1.672E-8	1.060E-3	4.315E-8	9.380E-3	3.604E-3	5.990E+1
-3.500E+1	-1.211E-6	1.211E-6	-2.253E-8	2.253E-8	1.100E-3	4.338E-8	9.429E-3	3.382E-3	6.416E+1
-3.700E+1	-1.298E-6	1.298E-6	-2.925E-8	2.925E-8	1.139E-3	4.362E-8	9.484E-3	3.190E-3	6.842E+1
-3.900E+1	-1.385E-6	1.385E-6	-3.713E-8	3.713E-8	1.177E-3	4.450E-8	9.674E-3	3.108E-3	7.164E+1
-4.100E+1	-1.476E-6	1.476E-6	-4.607E-8	4.607E-8	1.215E-3	4.463E-8	9.701E-3	2.938E-3	7.600E+1
-4.300E+1	-1.564E-6	1.564E-6	-5.610E-8	5.610E-8	1.251E-3	4.500E-8	9.783E-3	2.814E-3	8.002E+1
-4.500E+1	-1.656E-6	1.656E-6	-6.729E-8	6.729E-8	1.287E-3	4.575E-8	9.946E-3	2.751E-3	8.324E+1
-4.700E+1	-1.747E-6	1.747E-6	-7.944E-8	7.944E-8	1.322E-3	4.588E-8	9.973E-3	2.620E-3	8.762E+1
-4.900E+1	-1.839E-6	1.839E-6	-9.315E-8	9.315E-8	1.356E-3	4.650E-8	1.011E-2	2.556E-3	9.104E+1
-5.100E+1	-1.933E-6	1.933E-6	-1.083E-7	1.083E-7	1.390E-3	4.762E-8	1.035E-2	2.551E-3	9.344E+1
-5.300E+1	-2.029E-6	2.029E-6	-1.247E-7	1.247E-7	1.425E-3	4.850E-8	1.054E-2	2.520E-3	9.630E+1
-5.500E+1	-2.127E-6	2.127E-6	-1.426E-7	1.426E-7	1.458E-3	4.850E-8	1.054E-2	2.406E-3	1.009E+2
-5.700E+1	-2.223E-6	2.223E-6	-1.614E-7	1.614E-7	1.491E-3	4.800E-8	1.043E-2	2.254E-3	1.066E+2
-5.900E+1	-2.319E-6	2.319E-6	-1.826E-7	1.826E-7	1.523E-3	4.775E-8	1.038E-2	2.138E-3	1.118E+2
-6.100E+1	-2.414E-6	2.414E-6	-2.045E-7	2.045E-7	1.554E-3	4.800E-8	1.043E-2	2.075E-3	1.158E+2
-6.300E+1	-2.511E-6	2.511E-6	-2.277E-7	2.277E-7	1.585E-3	4.748E-8	1.032E-2	1.953E-3	1.217E+2
-6.500E+1	-2.604E-6	2.604E-6	-2.540E-7	2.540E-7	1.614E-3	4.662E-8	1.014E-2	1.815E-3	1.286E+2
-6.700E+1	-2.698E-6	2.698E-6	-2.811E-7	2.811E-7	1.642E-3	4.537E-8	9.864E-3	1.661E-3	1.367E+2
-6.900E+1	-2.786E-6	2.786E-6	-3.108E-7	3.108E-7	1.669E-3	4.387E-8	9.538E-3	1.503E-3	1.461E+2
-7.100E+1	-2.873E-6	2.873E-6	-3.422E-7	3.422E-7	1.695E-3	4.340E-8	9.435E-3	1.426E-3	1.524E+2
-7.300E+1	-2.960E-6	2.960E-6	-3.735E-7	3.735E-7	1.720E-3	4.135E-8	8.989E-3	1.258E-3	1.645E+2
-7.500E+1	-3.038E-6	3.038E-6	-4.093E-7	4.093E-7	1.743E-3	3.912E-8	8.505E-3	1.096E-3	1.787E+2
-7.700E+1	-3.116E-6	3.116E-6	-4.463E-7	4.463E-7	1.765E-3	3.715E-8	8.076E-3	9.640E-4	1.929E+2
-7.900E+1	-3.187E-6	3.187E-6	-4.869E-7	4.869E-7	1.785E-3	3.398E-8	7.386E-3	7.882E-4	2.158E+2
-8.100E+1	-3.252E-6	3.252E-6	-5.287E-7	5.287E-7	1.803E-3	3.100E-8	6.739E-3	6.431E-4	2.413E+2
-8.300E+1	-3.311E-6	3.311E-6	-5.706E-7	5.706E-7	1.820E-3	2.827E-8	6.147E-3	5.254E-4	2.694E+2
-8.500E+1	-3.365E-6	3.365E-6	-6.151E-7	6.151E-7	1.834E-3	2.575E-8	5.598E-3	4.287E-4	3.007E+2
-8.700E+1	-3.414E-6	3.414E-6	-6.635E-7	6.635E-7	1.848E-3	2.238E-8	4.864E-3	3.192E-4	3.509E+2
-8.900E+1	-3.455E-6	3.455E-6	-7.122E-7	7.122E-7	1.859E-3	1.750E-8	3.804E-3	1.930E-4	4.538E+2
-9.100E+1	-3.484E-6	3.484E-6	-7.651E-7	7.651E-7	1.867E-3	1.422E-8	3.092E-3	1.263E-4	5.638E+2
-9.300E+1	-3.511E-6	3.511E-6	-8.173E-7	8.173E-7	1.874E-3	1.175E-8	2.554E-3	8.557E-5	6.873E+2
-9.500E+1	-3.531E-6	3.531E-6	-8.737E-7	8.737E-7	1.879E-3	4.900E-9	1.065E-3	1.482E-5	1.655E+3
