
Vg(V)	Id(A)	-Id(A)	Ig(A)	abs(Ig)(A)	Sqrt(Id)	Gm	LinearMobility(cm2/Vs)	SaturationMobility(cm2/Vs)	InvSubthS(V/dec)
5.000E+0	-1.245E-5	1.245E-5	6.380E-10	6.380E-10	3.528E-3	2.750E-8	5.978E-3	1.315E-4	1.047E+3
3.000E+0	-1.256E-5	1.256E-5	4.755E-10	4.755E-10	3.544E-3	6.250E-8	1.359E-2	6.753E-4	4.633E+2
1.000E+0	-1.270E-5	1.270E-5	3.230E-10	3.230E-10	3.564E-3	8.000E-8	1.739E-2	1.094E-3	3.661E+2
-1.000E+0	-1.288E-5	1.288E-5	2.730E-10	2.730E-10	3.589E-3	9.875E-8	2.147E-2	1.644E-3	3.007E+2
-3.000E+0	-1.310E-5	1.310E-5	3.085E-10	3.085E-10	3.619E-3	1.150E-7	2.500E-2	2.193E-3	2.625E+2
-5.000E+0	-1.334E-5	1.334E-5	1.820E-10	1.820E-10	3.652E-3	1.312E-7	2.853E-2	2.804E-3	2.343E+2
-7.000E+0	-1.362E-5	1.362E-5	2.290E-10	2.290E-10	3.691E-3	1.463E-7	3.179E-2	3.411E-3	2.146E+2
-9.000E+0	-1.392E-5	1.392E-5	2.425E-10	2.425E-10	3.732E-3	1.587E-7	3.451E-2	3.931E-3	2.021E+2
-1.100E+1	-1.425E-5	1.425E-5	1.445E-10	1.445E-10	3.776E-3	1.688E-7	3.668E-2	4.341E-3	1.946E+2
-1.300E+1	-1.460E-5	1.460E-5	2.085E-10	2.085E-10	3.821E-3	1.788E-7	3.886E-2	4.754E-3	1.882E+2
-1.500E+1	-1.497E-5	1.497E-5	1.150E-10	1.150E-10	3.869E-3	1.875E-7	4.076E-2	5.104E-3	1.839E+2
-1.700E+1	-1.535E-5	1.535E-5	1.735E-10	1.735E-10	3.918E-3	1.925E-7	4.185E-2	5.247E-3	1.836E+2
-1.900E+1	-1.574E-5	1.574E-5	1.365E-10	1.365E-10	3.967E-3	1.985E-7	4.315E-2	5.440E-3	1.826E+2
-2.100E+1	-1.614E-5	1.614E-5	1.600E-10	1.600E-10	4.018E-3	2.050E-7	4.457E-2	5.658E-3	1.814E+2
-2.300E+1	-1.656E-5	1.656E-5	6.750E-11	6.750E-11	4.069E-3	2.077E-7	4.516E-2	5.667E-3	1.835E+2
-2.500E+1	-1.697E-5	1.697E-5	1.130E-10	1.130E-10	4.120E-3	2.112E-7	4.592E-2	5.713E-3	1.851E+2
-2.700E+1	-1.741E-5	1.741E-5	2.850E-11	2.850E-11	4.172E-3	2.160E-7	4.696E-2	5.828E-3	1.855E+2
-2.900E+1	-1.784E-5	1.784E-5	3.300E-11	3.300E-11	4.224E-3	2.188E-7	4.755E-2	5.831E-3	1.878E+2
-3.100E+1	-1.828E-5	1.828E-5	-2.200E-11	2.200E-11	4.276E-3	2.215E-7	4.815E-2	5.835E-3	1.900E+2
-3.300E+1	-1.873E-5	1.873E-5	-2.000E-12	2.000E-12	4.327E-3	2.237E-7	4.864E-2	5.812E-3	1.927E+2
-3.500E+1	-1.917E-5	1.917E-5	-5.550E-11	5.550E-11	4.379E-3	2.260E-7	4.913E-2	5.791E-3	1.953E+2
-3.700E+1	-1.963E-5	1.963E-5	-3.650E-11	3.650E-11	4.430E-3	2.288E-7	4.973E-2	5.795E-3	1.976E+2
-3.900E+1	-2.009E-5	2.009E-5	-6.450E-11	6.450E-11	4.482E-3	2.365E-7	5.141E-2	6.050E-3	1.957E+2
-4.100E+1	-2.057E-5	2.057E-5	-6.200E-11	6.200E-11	4.536E-3	2.363E-7	5.136E-2	5.902E-3	2.004E+2
-4.300E+1	-2.104E-5	2.104E-5	-7.150E-11	7.150E-11	4.586E-3	2.350E-7	5.109E-2	5.705E-3	2.062E+2
-4.500E+1	-2.151E-5	2.151E-5	-6.950E-11	6.950E-11	4.638E-3	2.412E-7	5.245E-2	5.881E-3	2.053E+2
-4.700E+1	-2.200E-5	2.200E-5	-7.800E-11	7.800E-11	4.690E-3	2.425E-7	5.272E-2	5.812E-3	2.089E+2
-4.900E+1	-2.248E-5	2.248E-5	-8.850E-11	8.850E-11	4.742E-3	2.448E-7	5.321E-2	5.791E-3	2.115E+2
-5.100E+1	-2.298E-5	2.298E-5	-9.100E-11	9.100E-11	4.794E-3	2.487E-7	5.408E-2	5.854E-3	2.127E+2
-5.300E+1	-2.348E-5	2.348E-5	-1.160E-10	1.160E-10	4.846E-3	2.502E-7	5.440E-2	5.799E-3	2.160E+2
-5.500E+1	-2.398E-5	2.398E-5	-1.145E-10	1.145E-10	4.897E-3	2.525E-7	5.489E-2	5.779E-3	2.187E+2
-5.700E+1	-2.449E-5	2.449E-5	-1.560E-10	1.560E-10	4.949E-3	2.547E-7	5.538E-2	5.762E-3	2.213E+2
-5.900E+1	-2.500E-5	2.500E-5	-1.520E-10	1.520E-10	5.000E-3	2.550E-7	5.543E-2	5.655E-3	2.257E+2
-6.100E+1	-2.551E-5	2.551E-5	-2.250E-10	2.250E-10	5.051E-3	2.565E-7	5.576E-2	5.607E-3	2.290E+2
-6.300E+1	-2.602E-5	2.602E-5	-2.110E-10	2.110E-10	5.101E-3	2.575E-7	5.598E-2	5.539E-3	2.327E+2
-6.500E+1	-2.654E-5	2.654E-5	-2.960E-10	2.960E-10	5.152E-3	2.575E-7	5.598E-2	5.432E-3	2.373E+2
-6.700E+1	-2.706E-5	2.706E-5	-2.475E-10	2.475E-10	5.201E-3	2.550E-7	5.543E-2	5.226E-3	2.442E+2
-6.900E+1	-2.756E-5	2.756E-5	-3.910E-10	3.910E-10	5.250E-3	2.537E-7	5.516E-2	5.079E-3	2.501E+2
-7.100E+1	-2.807E-5	2.807E-5	-3.390E-10	3.390E-10	5.298E-3	2.522E-7	5.484E-2	4.929E-3	2.562E+2
-7.300E+1	-2.857E-5	2.857E-5	-4.645E-10	4.645E-10	5.345E-3	2.497E-7	5.429E-2	4.747E-3	2.634E+2
-7.500E+1	-2.907E-5	2.907E-5	-5.890E-10	5.890E-10	5.392E-3	2.465E-7	5.359E-2	4.546E-3	2.714E+2
-7.700E+1	-2.956E-5	2.956E-5	-6.120E-10	6.120E-10	5.436E-3	2.390E-7	5.196E-2	4.203E-3	2.846E+2
-7.900E+1	-3.003E-5	3.003E-5	-7.475E-10	7.475E-10	5.480E-3	2.338E-7	5.082E-2	3.957E-3	2.957E+2
-8.100E+1	-3.049E-5	3.049E-5	-7.185E-10	7.185E-10	5.522E-3	2.312E-7	5.027E-2	3.813E-3	3.035E+2
-8.300E+1	-3.095E-5	3.095E-5	-1.039E-9	1.039E-9	5.563E-3	2.240E-7	4.870E-2	3.526E-3	3.180E+2
-8.500E+1	-3.139E-5	3.139E-5	-9.909E-10	9.909E-10	5.602E-3	2.150E-7	4.674E-2	3.202E-3	3.360E+2
-8.700E+1	-3.181E-5	3.181E-5	-1.008E-9	1.008E-9	5.640E-3	2.070E-7	4.500E-2	2.929E-3	3.537E+2
-8.900E+1	-3.221E-5	3.221E-5	-1.505E-9	1.505E-9	5.676E-3	1.975E-7	4.293E-2	2.633E-3	3.754E+2
-9.100E+1	-3.260E-5	3.260E-5	-1.719E-9	1.719E-9	5.710E-3	1.888E-7	4.103E-2	2.376E-3	3.976E+2
-9.300E+1	-3.297E-5	3.297E-5	-2.342E-9	2.342E-9	5.742E-3	1.775E-7	3.859E-2	2.078E-3	4.275E+2
-9.500E+1	-3.331E-5	3.331E-5	-1.964E-9	1.964E-9	5.771E-3	8.525E-8	1.853E-2	4.767E-4	8.951E+2
